
**** 06/20/21 17:04:56 *********** Evaluation PSpice (Nov 1999) **************

 * C:\Users\hp pro\Desktop\circuit final project\question 3.sch


 ****     CIRCUIT DESCRIPTION


******************************************************************************




* Schematics Version 9.1 - Web Update 1
* Sun Jun 20 16:58:20 2021



** Analysis setup **
.tran/OP 1m 3.2m 1.1205m 1u
.OP 


* From [PSPICE NETLIST] section of pspiceev.ini:
.lib "nom.lib"

.INC "question 3.net"

**** INCLUDING "question 3.net" ****
* Schematics Netlist *



R_R2         $N_0002 $N_0001  728  
L_L1         0 $N_0002  100m  
C_C1         0 $N_0001  62.5n  
R_R1         $N_0003 $N_0001  1k  
V_V1         $N_0003 0  
+SIN 0 15 1646.3 0 0 90

**** RESUMING "question 3.cir" ****
.INC "question 3.als"



**** INCLUDING "question 3.als" ****
* Schematics Aliases *

.ALIASES
R_R2            R2(1=$N_0002 2=$N_0001 )
L_L1            L1(1=0 2=$N_0002 )
C_C1            C1(1=0 2=$N_0001 )
R_R1            R1(1=$N_0003 2=$N_0001 )
V_V1            V1(+=$N_0003 -=0 )
.ENDALIASES


**** RESUMING "question 3.cir" ****
.probe


.END

**** 06/20/21 17:04:56 *********** Evaluation PSpice (Nov 1999) **************

 * C:\Users\hp pro\Desktop\circuit final project\question 3.sch


 ****     SMALL SIGNAL BIAS SOLUTION       TEMPERATURE =   27.000 DEG C


******************************************************************************



 NODE   VOLTAGE     NODE   VOLTAGE     NODE   VOLTAGE     NODE   VOLTAGE


($N_0001)    0.0000                   ($N_0002)    0.0000                       

($N_0003)    0.0000                   




    VOLTAGE SOURCE CURRENTS
    NAME         CURRENT

    V_V1         0.000E+00

    TOTAL POWER DISSIPATION   0.00E+00  WATTS


**** 06/20/21 17:04:56 *********** Evaluation PSpice (Nov 1999) **************

 * C:\Users\hp pro\Desktop\circuit final project\question 3.sch


 ****     OPERATING POINT INFORMATION      TEMPERATURE =   27.000 DEG C


******************************************************************************




**** 06/20/21 17:04:56 *********** Evaluation PSpice (Nov 1999) **************

 * C:\Users\hp pro\Desktop\circuit final project\question 3.sch


 ****     INITIAL TRANSIENT SOLUTION       TEMPERATURE =   27.000 DEG C


******************************************************************************



 NODE   VOLTAGE     NODE   VOLTAGE     NODE   VOLTAGE     NODE   VOLTAGE


($N_0001)    6.3194                   ($N_0002)    0.0000                       

($N_0003)   15.0000                   




    VOLTAGE SOURCE CURRENTS
    NAME         CURRENT

    V_V1        -8.681E-03

    TOTAL POWER DISSIPATION   1.30E-01  WATTS


**** 06/20/21 17:04:56 *********** Evaluation PSpice (Nov 1999) **************

 * C:\Users\hp pro\Desktop\circuit final project\question 3.sch


 ****     OPERATING POINT INFORMATION      TEMPERATURE =   27.000 DEG C


******************************************************************************





          JOB CONCLUDED

          TOTAL JOB TIME             .11
